Circuit: * D:\Teaching\Materii\Cursuri\SAIC2023\proiect\Etaj1Amplificatoare\AI_V-I_Buffer\AI_VI_Buffer_Gm.asc

Early termination of direct N-R iteration.
Direct Newton iteration failed to find .op point.  (Use ".option noopiter" to skip.)
Starting Gmin stepping
Gmin = 10
Gmin = 1.07374
Gmin = 0.115292
Gmin = 0.0123794
Gmin = 0.00132923
Gmin = 0.000142725
Gmin = 1.5325e-005
Gmin = 1.6455e-006
Gmin = 1.76685e-007
vernier = 0.5
vernier = 0.25
vernier = 0.125
vernier = 0.0625
vernier = 0.03125
vernier = 0.015625
Gmin = 1.4025e-007
vernier = 0.0208333
vernier = 0.0277778
Gmin = 1.33439e-007
vernier = 0.037037
Gmin = 1.23095e-007
vernier = 0.0493827
vernier = 0.0658435
Gmin = 1.07893e-007
vernier = 0.0877914
vernier = 0.117055
Gmin = 8.76236e-008
vernier = 0.156073
Gmin = 6.26429e-008
vernier = 0.208098
vernier = 0.277464
Gmin = 3.63676e-008
vernier = 0.369952
vernier = 0.493269
Gmin = 1.55716e-008
vernier = 0.657691
Gmin = 4.06694e-009
vernier = 0.876922
vernier = 1
Gmin = 5.44392e-010
Gmin = 5.84537e-011
Gmin = 6.27641e-012
Gmin = 6.73925e-013
Gmin = 0
Gmin stepping succeeded in finding the operating point.

Semiconductor Device Operating Points:
                        --- Diodes ---
Name:    d:u8:1      d:u8:15     d:u8:7      d:u8:13     d:u8:12
Model:   u8:dlim     u8:dinp      u8:dp     u8:dbiaot   u8:dbiaot
Id:      3.91e-09   -2.39e-16    8.40e-04   -1.50e-11   -1.50e-11
Vd:      2.74e-02   -2.39e-06    3.00e+01   -1.50e+01   -1.50e+01
Req:     1.43e-07    1.00e-10    1.00e-03    1.00e-12    1.00e-12
CAP:     0.00e+00    0.00e+00    0.00e+00    0.00e+00    0.00e+00

Name:    d:u8:6      d:u8:9      d:u8:10     d:u8:8      d:u8:5
Model:  u8:dlimn2   u8:dbia1    u8:dbia1    u8:dlimp    u8:dlimn1
Id:      6.15e-10   -1.36e-10   -1.36e-10    6.11e-09    2.05e-10
Vd:      6.15e-01   -1.36e+01   -1.36e+01    6.11e-01    6.15e-01
Req:     1.00e-09    1.00e-11    1.00e-11    1.00e-08    3.33e-10
CAP:     0.00e+00    0.00e+00    0.00e+00    0.00e+00    0.00e+00

Name:    d:u8:4      d:u7:1      d:u7:15     d:u7:7      d:u7:13
Model:  u8:dbia2     u7:dlim     u7:dinp      u7:dp     u7:dbiaot
Id:      2.86e-05    3.91e-09   -2.39e-16    8.40e-04   -1.50e-11
Vd:      1.38e+00    2.74e-02   -2.39e-06    3.00e+01   -1.50e+01
Req:     1.00e-03    1.43e-07    1.00e-10    1.00e-03    1.00e-12
CAP:     0.00e+00    0.00e+00    0.00e+00    0.00e+00    0.00e+00

Name:    d:u7:12     d:u7:6      d:u7:9      d:u7:10     d:u7:8
Model:  u7:dbiaot   u7:dlimn2   u7:dbia1    u7:dbia1    u7:dlimp
Id:     -1.50e-11    6.15e-10   -1.36e-10   -1.36e-10    6.11e-09
Vd:     -1.50e+01    6.15e-01   -1.36e+01   -1.36e+01    6.11e-01
Req:     1.00e-12    1.00e-09    1.00e-11    1.00e-11    1.00e-08
CAP:     0.00e+00    0.00e+00    0.00e+00    0.00e+00    0.00e+00

Name:    d:u7:5      d:u7:4      d:u6:1      d:u6:15     d:u6:7
Model:  u7:dlimn1   u7:dbia2     u6:dlim     u6:dinp      u6:dp
Id:      2.05e-10    2.86e-05    3.91e-09   -2.39e-16    8.40e-04
Vd:      6.15e-01    1.38e+00    2.74e-02   -2.39e-06    3.00e+01
Req:     3.33e-10    1.00e-03    1.43e-07    1.00e-10    1.00e-03
CAP:     0.00e+00    0.00e+00    0.00e+00    0.00e+00    0.00e+00

Name:    d:u6:13     d:u6:12     d:u6:6      d:u6:9      d:u6:10
Model:  u6:dbiaot   u6:dbiaot   u6:dlimn2   u6:dbia1    u6:dbia1
Id:     -1.50e-11   -1.50e-11    6.15e-10   -1.36e-10   -1.36e-10
Vd:     -1.50e+01   -1.50e+01    6.15e-01   -1.36e+01   -1.36e+01
Req:     1.00e-12    1.00e-12    1.00e-09    1.00e-11    1.00e-11
CAP:     0.00e+00    0.00e+00    0.00e+00    0.00e+00    0.00e+00

Name:    d:u6:8      d:u6:5      d:u6:4      d:u5:1      d:u5:15
Model:  u6:dlimp    u6:dlimn1   u6:dbia2     u5:dlim     u5:dinp
Id:      6.11e-09    2.05e-10    2.86e-05    3.91e-09   -2.39e-16
Vd:      6.11e-01    6.15e-01    1.38e+00    2.74e-02   -2.39e-06
Req:     1.00e-08    3.33e-10    1.00e-03    1.43e-07    1.00e-10
CAP:     0.00e+00    0.00e+00    0.00e+00    0.00e+00    0.00e+00

Name:    d:u5:7      d:u5:13     d:u5:12     d:u5:6      d:u5:9
Model:    u5:dp     u5:dbiaot   u5:dbiaot   u5:dlimn2   u5:dbia1
Id:      8.40e-04   -1.50e-11   -1.50e-11    6.15e-10   -1.36e-10
Vd:      3.00e+01   -1.50e+01   -1.50e+01    6.15e-01   -1.36e+01
Req:     1.00e-03    1.00e-12    1.00e-12    1.00e-09    1.00e-11
CAP:     0.00e+00    0.00e+00    0.00e+00    0.00e+00    0.00e+00

Name:    d:u5:10     d:u5:8      d:u5:5      d:u5:4
Model:  u5:dbia1    u5:dlimp    u5:dlimn1   u5:dbia2
Id:     -1.36e-10    6.11e-09    2.05e-10    2.86e-05
Vd:     -1.36e+01    6.11e-01    6.15e-01    1.38e+00
Req:     1.00e-11    1.00e-08    3.33e-10    1.00e-03
CAP:     0.00e+00    0.00e+00    0.00e+00    0.00e+00

                        --- VDMOSFET Transistors ---
Name:        m:u8:2      m:u8:1      m:u7:2      m:u7:1      m:u6:2
Model:        u8:pi       u8:ni       u7:pi       u7:ni       u6:pi
Id:         -1.63e-03    1.63e-03   -1.63e-03    1.63e-03   -1.63e-03
Vgs:        -6.11e-01    6.15e-01   -6.11e-01    6.15e-01   -6.11e-01
Vds:        -1.50e+01    1.50e+01   -1.50e+01    1.50e+01   -1.50e+01
Vth:        -3.00e-01    3.00e-01   -3.00e-01    3.00e-01   -3.00e-01
Gm:          1.06e-02    1.06e-02    1.06e-02    1.06e-02    1.06e-02
Gds:         1.42e-05    1.42e-05    1.42e-05    1.42e-05    1.42e-05
Cgs:         0.00e+00    0.00e+00    0.00e+00    0.00e+00    0.00e+00
Cgd:         0.00e+00    0.00e+00    0.00e+00    0.00e+00    0.00e+00
Cbody:       0.00e+00    0.00e+00    0.00e+00    0.00e+00    0.00e+00

Name:        m:u6:1      m:u5:2      m:u5:1
Model:        u6:ni       u5:pi       u5:ni
Id:          1.63e-03   -1.63e-03    1.63e-03
Vgs:         6.15e-01   -6.11e-01    6.15e-01
Vds:         1.50e+01   -1.50e+01    1.50e+01
Vth:         3.00e-01   -3.00e-01    3.00e-01
Gm:          1.06e-02    1.06e-02    1.06e-02
Gds:         1.42e-05    1.42e-05    1.42e-05
Cgs:         0.00e+00    0.00e+00    0.00e+00
Cgd:         0.00e+00    0.00e+00    0.00e+00
Cbody:       0.00e+00    0.00e+00    0.00e+00



gm: (i(r1)/v(in))=(-35.4939dB,-6.55588e-005°) at 1
iout_max: MAX(mag(i(r1)))=(-33.5288dB,0°) FROM 0.01 TO 1e+007
bw: i(r1)=(-36.5404dB,-93.8755°) at 608521


Date: Mon Dec 18 20:23:58 2023
Total elapsed time: 0.229 seconds.

tnom = 27
temp = 27
method = trap
totiter = 1155
traniter = 0
tranpoints = 0
accept = 0
rejected = 0
matrix size = 61
fillins = 159
solver = Normal
Matrix Compiler1:     873 opcodes
Matrix Compiler2: 10.10 KB object code size  0.6/0.7/[0.4]

