Circuit: * D:\Teaching\Materii\Cursuri\SAIC2023\proiect\P2\I-V_Converter\I_to_V_DC.asc

Direct Newton iteration failed to find .op point.  (Use ".option noopiter" to skip.)
Starting Gmin stepping
Gmin = 10
Gmin = 1.07374
Gmin = 0.115292
Gmin = 0.0123794
Gmin = 0.00132923
Gmin = 0.000142725
Gmin = 1.5325e-005
Gmin = 1.6455e-006
Gmin = 1.76685e-007
vernier = 0.5
vernier = 0.25
vernier = 0.125
vernier = 0.0625
vernier = 0.03125
Gmin = 2.12427e-007
vernier = 0.0416667
vernier = 0.0555555
Gmin = 1.88906e-007
vernier = 0.074074
vernier = 0.0987653
Gmin = 1.56771e-007
vernier = 0.131687
Gmin = 1.17082e-007
vernier = 0.175583
vernier = 0.23411
Gmin = 7.20671e-008
vernier = 0.312147
vernier = 0.416196
Gmin = 3.36167e-008
vernier = 0.554928
Gmin = 1.0377e-008
vernier = 0.739903
vernier = 0.986537
Gmin = 1.55188e-009
vernier = 1
Gmin = 1.67533e-010
Gmin = 1.79888e-011
Gmin = 1.93153e-012
Gmin = 2.07396e-013
Gmin = 0
Gmin stepping succeeded in finding the operating point.

Semiconductor Device Operating Points:
                        --- Diodes ---
Name:    d:u5:4      d:u5:1      d:u4:4      d:u4:1      d:u3:4
Model:    u5:di       u5:x        u4:di       u4:x        u3:di
Id:     -2.13e-17   -4.90e-19   -1.72e-18   -3.96e-20    0.00e+00
Vd:     -2.13e-08   -4.89e-07   -1.72e-09   -3.96e-08    0.00e+00
Req:     1.00e-09    1.00e-12    1.00e-09    1.00e-12    1.00e-09
CAP:     0.00e+00    0.00e+00    0.00e+00    0.00e+00    0.00e+00

Name:    d:u3:1      d:u2:4      d:u2:1      d:u6:4      d:u6:1
Model:    u3:x        u2:di       u2:x        u6:di       u6:x
Id:      0.00e+00    0.00e+00    0.00e+00   -6.70e-15   -3.33e-15
Vd:      0.00e+00    0.00e+00    0.00e+00   -6.70e-06   -3.33e-03
Req:     1.00e-12    1.00e-09    1.00e-12    1.00e-09    1.00e-12
CAP:     0.00e+00    0.00e+00    0.00e+00    0.00e+00    0.00e+00

                        --- VDMOSFET Transistors ---
Name:        m:u5:2      m:u5:1      m:u4:2      m:u4:1      m:u3:2
Model:        u5:p        u5:n        u4:p        u4:n        u3:p
Id:         -2.25e-03    2.25e-03   -2.25e-03    2.25e-03   -2.25e-03
Vgs:         5.05e-07    5.05e-07    4.09e-08    4.09e-08    0.00e+00
Vds:        -1.50e+01    1.50e+01   -1.50e+01    1.50e+01   -1.50e+01
Vth:         3.00e-01   -3.00e-01    3.00e-01   -3.00e-01    3.00e-01
Gm:          1.50e-02    1.50e-02    1.50e-02    1.50e-02    1.50e-02
Gds:         0.00e+00    0.00e+00    0.00e+00    0.00e+00    0.00e+00
Cgs:         0.00e+00    0.00e+00    0.00e+00    0.00e+00    0.00e+00
Cgd:         0.00e+00    0.00e+00    0.00e+00    0.00e+00    0.00e+00
Cbody:       0.00e+00    0.00e+00    0.00e+00    0.00e+00    0.00e+00

Name:        m:u3:1      m:u2:2      m:u2:1      m:u6:2      m:u6:1
Model:        u3:n        u2:p        u2:n        u6:p        u6:n
Id:          2.25e-03   -2.25e-03    2.25e-03   -2.20e-03    2.30e-03
Vgs:         0.00e+00    0.00e+00    0.00e+00    3.33e-03    3.33e-03
Vds:         1.50e+01   -1.50e+01    1.50e+01   -2.00e+01    1.00e+01
Vth:        -3.00e-01    3.00e-01   -3.00e-01    3.00e-01   -3.00e-01
Gm:          1.50e-02    1.50e-02    1.50e-02    1.48e-02    1.52e-02
Gds:         0.00e+00    0.00e+00    0.00e+00    0.00e+00    0.00e+00
Cgs:         0.00e+00    0.00e+00    0.00e+00    0.00e+00    0.00e+00
Cgd:         0.00e+00    0.00e+00    0.00e+00    0.00e+00    0.00e+00
Cbody:       0.00e+00    0.00e+00    0.00e+00    0.00e+00    0.00e+00



Date: Wed Oct 18 12:53:24 2023
Total elapsed time: 0.233 seconds.

tnom = 27
temp = 27
method = trap
totiter = 1021
traniter = 0
tranpoints = 0
accept = 0
rejected = 0
matrix size = 39
fillins = 15
solver = Normal
Thread vector: 14.2/5.5[4] 0.0/0.0[0] 2.3/1.8[3] 0.2/0.7[1]  2592/500
Matrix Compiler1: 3.25 KB object code size
Matrix Compiler2: 4.89 KB object code size  0.5/0.5/[0.3]

