Circuit: * D:\Teaching_Work\Materii\Cursuri\SAIC2021\Lab_work\Lab1_Parametrii_AmplificatoarelorOperationale_LTspice\DC_params\DC_params.asc

Direct Newton iteration for .op point succeeded.
Semiconductor Device Operating Points:
                        --- Diodes ---
Name:    d:u4:3      d:u4:4      d:u4:6      d:u4:5      d:u4:2
Model:    u4:dx       u4:dx       u4:dx       u4:dx       u4:dx
Id:     -1.84e-13   -1.78e-13    6.96e-05    8.34e-05   -1.32e-11
Vd:     -1.83e-01   -1.77e-01    6.46e-01    6.50e-01   -1.32e+01
Req:     1.00e+12    1.00e+12    3.71e+02    3.10e+02    1.00e+12
CAP:     0.00e+00    0.00e+00    0.00e+00    0.00e+00    0.00e+00

Name:    d:u4:1      d:u3:3      d:u3:4      d:u3:6      d:u3:5
Model:    u4:dx       u3:dx       u3:dx       u3:dx       u3:dx
Id:     -1.35e-11   -1.81e-13   -1.81e-13    7.67e-05    7.57e-05
Vd:     -1.35e+01   -1.80e-01   -1.80e-01    6.48e-01    6.48e-01
Req:     1.00e+12    1.00e+12    1.00e+12    3.37e+02    3.42e+02
CAP:     0.00e+00    0.00e+00    0.00e+00    0.00e+00    0.00e+00

Name:    d:u3:2      d:u3:1      d:u2:3      d:u2:4      d:u2:6
Model:    u3:dx       u3:dx       u2:dx       u2:dx       u2:dx
Id:     -1.34e-11   -1.34e-11   -1.81e-13   -1.81e-13    7.63e-05
Vd:     -1.34e+01   -1.34e+01   -1.80e-01   -1.80e-01    6.48e-01
Req:     1.00e+12    1.00e+12    1.00e+12    1.00e+12    3.39e+02
CAP:     0.00e+00    0.00e+00    0.00e+00    0.00e+00    0.00e+00

Name:    d:u2:5      d:u2:2      d:u2:1      d:u1:3      d:u1:4
Model:    u2:dx       u2:dx       u2:dx       u1:dx       u1:dx
Id:      7.62e-05   -1.34e-11   -1.34e-11   -1.81e-13   -1.81e-13
Vd:      6.48e-01   -1.34e+01   -1.34e+01   -1.80e-01   -1.80e-01
Req:     3.40e+02    1.00e+12    1.00e+12    1.00e+12    1.00e+12
CAP:     0.00e+00    0.00e+00    0.00e+00    0.00e+00    0.00e+00

Name:    d:u1:6      d:u1:5      d:u1:2      d:u1:1
Model:    u1:dx       u1:dx       u1:dx       u1:dx
Id:      7.62e-05    7.62e-05   -2.73e-11    1.95e-06
Vd:      6.48e-01    6.48e-01   -2.73e+01    5.53e-01
Req:     3.39e+02    3.39e+02    1.00e+12    1.33e+04
CAP:     0.00e+00    0.00e+00    0.00e+00    0.00e+00

                        --- Bipolar Transistors ---
Name:     q:u4:2      q:u4:1      q:u3:2      q:u3:1      q:u2:2
Model:     u4:qx       u4:qx       u3:qx       u3:qx       u2:qx
Ib:       7.99e-08    7.99e-08    7.99e-08    7.99e-08    7.99e-08
Ic:       4.99e-05    4.99e-05    4.99e-05    4.99e-05    4.99e-05
Vbe:      6.97e-01    6.97e-01    6.97e-01    6.97e-01    6.97e-01
Vbc:     -1.50e+01   -1.50e+01   -1.50e+01   -1.50e+01   -1.50e+01
Vce:      1.57e+01    1.57e+01    1.57e+01    1.57e+01    1.57e+01
BetaDC:   6.25e+02    6.25e+02    6.25e+02    6.25e+02    6.25e+02
Gm:       1.93e-03    1.93e-03    1.93e-03    1.93e-03    1.93e-03
Rpi:      3.24e+05    3.24e+05    3.24e+05    3.24e+05    3.24e+05
Rx:       0.00e+00    0.00e+00    0.00e+00    0.00e+00    0.00e+00
Ro:       0.00e+00    0.00e+00    0.00e+00    0.00e+00    0.00e+00
Cbe:      0.00e+00    0.00e+00    0.00e+00    0.00e+00    0.00e+00
Cbc:      0.00e+00    0.00e+00    0.00e+00    0.00e+00    0.00e+00
Cjs:      0.00e+00    0.00e+00    0.00e+00    0.00e+00    0.00e+00
BetaAC:   6.25e+02    6.25e+02    6.25e+02    6.25e+02    6.25e+02
Cbx:      0.00e+00    0.00e+00    0.00e+00    0.00e+00    0.00e+00
Ft:       0.00e+00    0.00e+00    0.00e+00    0.00e+00    0.00e+00

Name:     q:u2:1      q:u1:2      q:u1:1
Model:     u2:qx       u1:qx       u1:qx
Ib:       7.99e-08    8.14e-08    7.83e-08
Ic:       4.99e-05    5.09e-05    4.90e-05
Vbe:      6.97e-01    6.97e-01    6.96e-01
Vbc:     -1.50e+01   -1.50e+01   -1.50e+01
Vce:      1.57e+01    1.57e+01    1.57e+01
BetaDC:   6.25e+02    6.25e+02    6.25e+02
Gm:       1.93e-03    1.97e-03    1.89e-03
Rpi:      3.24e+05    3.18e+05    3.30e+05
Rx:       0.00e+00    0.00e+00    0.00e+00
Ro:       0.00e+00    0.00e+00    0.00e+00
Cbe:      0.00e+00    0.00e+00    0.00e+00
Cbc:      0.00e+00    0.00e+00    0.00e+00
Cjs:      0.00e+00    0.00e+00    0.00e+00
BetaAC:   6.25e+02    6.25e+02    6.25e+02
Cbx:      0.00e+00    0.00e+00    0.00e+00
Ft:       0.00e+00    0.00e+00    0.00e+00



Date: Wed Oct 27 15:54:51 2021
Total elapsed time: 0.329 seconds.

tnom = 27
temp = 27
method = trap
totiter = 17
traniter = 0
tranpoints = 0
accept = 0
rejected = 0
matrix size = 140
fillins = 125
solver = Normal

